time	V(ds)	V(vg)	Id(M2)	Is(M2)
Step Information: V2=500m  (Run: 1/7)
0.000000000000000e+000	-4.768353e-027	5.000000e-001	-1.322376e-025	-1.322376e-025
2.355199933390395e-005	7.065599e-005	5.000000e-001	1.230294e-010	-1.230268e-010
3.327999905877732e-005	9.983998e-005	5.000000e-001	1.738162e-010	-1.738136e-010
6.195199824787778e-005	1.858560e-004	5.000000e-001	3.233551e-010	-3.233523e-010
1.848319947725940e-004	5.544959e-004	5.000000e-001	9.632076e-010	-9.632047e-010
3.055460968823809e-003	9.166381e-003	5.000000e-001	1.538870e-008	-1.538869e-008
5.985148468823809e-003	1.795544e-002	5.000000e-001	2.913544e-008	-2.913543e-008
9.891398468823809e-003	2.967419e-002	5.000000e-001	4.585247e-008	-4.585246e-008
1.477421096882381e-002	4.432262e-002	5.000000e-001	6.410247e-008	-6.410246e-008
2.063358596882381e-002	6.190075e-002	5.000000e-001	8.204028e-008	-8.204025e-008
2.844608596882381e-002	8.533825e-002	5.000000e-001	9.909655e-008	-9.909652e-008
3.723514846882381e-002	1.117054e-001	5.000000e-001	1.087264e-007	-1.087264e-007
4.797733596882381e-002	1.439320e-001	5.000000e-001	1.131232e-007	-1.131232e-007
6.067264846882381e-002	1.820179e-001	5.000000e-001	1.181471e-007	-1.181470e-007
7.532108596882381e-002	2.259632e-001	5.000000e-001	1.237098e-007	-1.237097e-007
9.192264846882381e-002	2.757679e-001	5.000000e-001	1.296134e-007	-1.296133e-007
1.114538984688238e-001	3.343617e-001	5.000000e-001	1.359781e-007	-1.359780e-007
1.348913984688238e-001	4.046742e-001	5.000000e-001	1.428465e-007	-1.428464e-007
1.641882734688238e-001	4.925648e-001	5.000000e-001	1.504441e-007	-1.504440e-007
2.022742109688238e-001	6.068226e-001	5.000000e-001	1.590675e-007	-1.590675e-007
2.511023359688238e-001	7.533070e-001	5.000000e-001	1.686586e-007	-1.686585e-007
3.155554609688238e-001	9.466664e-001	5.000000e-001	1.796627e-007	-1.796626e-007
4.024695234688238e-001	1.207409e+000	5.000000e-001	1.926987e-007	-1.926986e-007
5.216101484688238e-001	1.564830e+000	5.000000e-001	2.087495e-007	-2.087493e-007
6.866492109688238e-001	2.059948e+000	5.000000e-001	2.294423e-007	-2.294422e-007
9.190710859688238e-001	2.757213e+000	5.000000e-001	2.576697e-007	-2.576696e-007
9.678992109688238e-001	2.903697e+000	5.000000e-001	2.636509e-007	-2.636507e-007
9.990234375000000e-001	2.997070e+000	5.000000e-001	2.674898e-007	-2.674897e-007
1.000000000000000e+000	3.000000e+000	5.000000e-001	2.676107e-007	-2.676105e-007
Step Information: V2=750m  (Run: 2/7)
0.000000000000000e+000	-4.768352e-027	7.500000e-001	-1.322376e-025	-1.322376e-025
2.355199933390395e-005	7.065597e-005	7.500000e-001	3.544449e-010	-3.544424e-010
3.327999905877732e-005	9.983995e-005	7.500000e-001	5.008176e-010	-5.008149e-010
6.195199824787778e-005	1.858559e-004	7.500000e-001	9.320870e-010	-9.320842e-010
1.848319947725940e-004	5.544957e-004	7.500000e-001	2.779412e-009	-2.779409e-009
3.055460968823809e-003	9.166379e-003	7.500000e-001	4.543670e-008	-4.543669e-008
5.985148468823809e-003	1.795544e-002	7.500000e-001	8.804017e-008	-8.804015e-008
9.891398468823809e-003	2.967418e-002	7.500000e-001	1.433051e-007	-1.433051e-007
1.477421096882381e-002	4.432261e-002	7.500000e-001	2.098578e-007	-2.098578e-007
2.063358596882381e-002	6.190073e-002	7.500000e-001	2.859344e-007	-2.859343e-007
2.844608596882381e-002	8.533822e-002	7.500000e-001	3.808119e-007	-3.808119e-007
3.723514846882381e-002	1.117054e-001	7.500000e-001	4.784117e-007	-4.784117e-007
4.797733596882381e-002	1.439320e-001	7.500000e-001	5.842899e-007	-5.842899e-007
5.969608596882381e-002	1.790882e-001	7.500000e-001	6.826214e-007	-6.826213e-007
7.239139846882381e-002	2.171741e-001	7.500000e-001	7.685241e-007	-7.685240e-007
8.508671096882381e-002	2.552601e-001	7.500000e-001	8.326095e-007	-8.326094e-007
9.778202346882381e-002	2.933460e-001	7.500000e-001	8.745679e-007	-8.745678e-007
1.114538984688238e-001	3.343616e-001	7.500000e-001	8.948060e-007	-8.948059e-007
1.348913984688238e-001	4.046741e-001	7.500000e-001	9.091139e-007	-9.091139e-007
1.641882734688238e-001	4.925647e-001	7.500000e-001	9.253028e-007	-9.253027e-007
2.012976484688238e-001	6.038929e-001	7.500000e-001	9.438594e-007	-9.438593e-007
2.501257734688238e-001	7.503772e-001	7.500000e-001	9.660799e-007	-9.660798e-007
3.145788984688238e-001	9.437366e-001	7.500000e-001	9.931377e-007	-9.931375e-007
4.014929609688238e-001	1.204479e+000	7.500000e-001	1.027536e-006	-1.027536e-006
5.196570234688238e-001	1.558971e+000	7.500000e-001	1.072984e-006	-1.072984e-006
6.846960859688238e-001	2.054088e+000	7.500000e-001	1.137106e-006	-1.137106e-006
9.171179609688238e-001	2.751354e+000	7.500000e-001	1.232775e-006	-1.232775e-006
9.669226484688238e-001	2.900768e+000	7.500000e-001	1.254406e-006	-1.254406e-006
9.990234375000000e-001	2.997070e+000	7.500000e-001	1.268590e-006	-1.268590e-006
1.000000000000000e+000	3.000000e+000	7.500000e-001	1.269025e-006	-1.269025e-006
Step Information: V2=1  (Run: 3/7)
0.000000000000000e+000	-4.768354e-027	1.000000e+000	-1.322377e-025	-1.322377e-025
2.355199933390395e-005	7.065594e-005	1.000000e+000	5.795076e-010	-5.795050e-010
3.327999905877732e-005	9.983991e-005	1.000000e+000	8.188418e-010	-8.188392e-010
6.195199824787778e-005	1.858558e-004	1.000000e+000	1.524107e-009	-1.524104e-009
1.848319947725940e-004	5.544955e-004	1.000000e+000	4.545750e-009	-4.545748e-009
3.055460968823809e-003	9.166376e-003	1.000000e+000	7.465817e-008	-7.465817e-008
5.985148468823809e-003	1.795543e-002	1.000000e+000	1.453217e-007	-1.453217e-007
9.891398468823809e-003	2.967417e-002	1.000000e+000	2.380659e-007	-2.380659e-007
1.477421096882381e-002	4.432260e-002	1.000000e+000	3.515749e-007	-3.515749e-007
2.063358596882381e-002	6.190071e-002	1.000000e+000	4.841588e-007	-4.841588e-007
2.844608596882381e-002	8.533819e-002	1.000000e+000	6.546552e-007	-6.546552e-007
3.723514846882381e-002	1.117054e-001	1.000000e+000	8.377106e-007	-8.377106e-007
4.797733596882381e-002	1.439319e-001	1.000000e+000	1.048599e-006	-1.048599e-006
6.067264846882381e-002	1.820178e-001	1.000000e+000	1.279229e-006	-1.279229e-006
7.532108596882381e-002	2.259631e-001	1.000000e+000	1.519773e-006	-1.519773e-006
9.192264846882381e-002	2.757678e-001	1.000000e+000	1.758645e-006	-1.758645e-006
1.095007734688238e-001	3.285021e-001	1.000000e+000	1.971860e-006	-1.971860e-006
1.280554609688238e-001	3.841662e-001	1.000000e+000	2.152029e-006	-2.152029e-006
1.475867109688238e-001	4.427599e-001	1.000000e+000	2.291306e-006	-2.291306e-006
1.671179609688238e-001	5.013536e-001	1.000000e+000	2.378385e-006	-2.378385e-006
1.886023359688238e-001	5.658067e-001	1.000000e+000	2.415353e-006	-2.415353e-006
2.335242109688238e-001	7.005724e-001	1.000000e+000	2.453726e-006	-2.453726e-006
2.921179609688238e-001	8.763536e-001	1.000000e+000	2.501346e-006	-2.501346e-006
3.712195234688238e-001	1.113658e+000	1.000000e+000	2.563824e-006	-2.563824e-006
4.786413984688238e-001	1.435924e+000	1.000000e+000	2.648588e-006	-2.648588e-006
6.270788984688238e-001	1.881236e+000	1.000000e+000	2.769617e-006	-2.769617e-006
8.350867109688238e-001	2.505260e+000	1.000000e+000	2.952044e-006	-2.952044e-006
9.669226484688238e-001	2.900768e+000	1.000000e+000	3.077263e-006	-3.077263e-006
9.990234375000000e-001	2.997070e+000	1.000000e+000	3.108999e-006	-3.108999e-006
1.000000000000000e+000	3.000000e+000	1.000000e+000	3.109973e-006	-3.109973e-006
Step Information: V2=1.25  (Run: 4/7)
0.000000000000000e+000	-5.615900e-030	1.250000e+000	-1.567270e-028	-1.567270e-028
2.355199933390395e-005	7.065591e-005	1.250000e+000	7.986910e-010	-7.986884e-010
3.327999905877732e-005	9.983988e-005	1.250000e+000	1.128558e-009	-1.128556e-009
6.195199824787778e-005	1.858558e-004	1.250000e+000	2.100662e-009	-2.100659e-009
1.848319947725940e-004	5.544954e-004	1.250000e+000	6.265942e-009	-6.265939e-009
3.055460968823809e-003	9.166373e-003	1.250000e+000	1.031146e-007	-1.031146e-007
5.985148468823809e-003	1.795543e-002	1.250000e+000	2.011006e-007	-2.011006e-007
9.891398468823809e-003	2.967416e-002	1.250000e+000	3.303339e-007	-3.303339e-007
1.477421096882381e-002	4.432258e-002	1.250000e+000	4.895510e-007	-4.895510e-007
2.063358596882381e-002	6.190069e-002	1.250000e+000	6.771288e-007	-6.771288e-007
2.844608596882381e-002	8.533817e-002	1.250000e+000	9.211993e-007	-9.211993e-007
3.723514846882381e-002	1.117053e-001	1.250000e+000	1.187373e-006	-1.187373e-006
4.797733596882381e-002	1.439319e-001	1.250000e+000	1.500360e-006	-1.500360e-006
6.067264846882381e-002	1.820178e-001	1.250000e+000	1.852394e-006	-1.852394e-006
7.532108596882381e-002	2.259630e-001	1.250000e+000	2.234049e-006	-2.234049e-006
9.192264846882381e-002	2.757677e-001	1.250000e+000	2.634218e-006	-2.634217e-006
1.114538984688238e-001	3.343614e-001	1.250000e+000	3.060270e-006	-3.060270e-006
1.348913984688238e-001	4.046738e-001	1.250000e+000	3.506827e-006	-3.506827e-006
1.593054609688238e-001	4.779160e-001	1.250000e+000	3.896022e-006	-3.896021e-006
1.846960859688238e-001	5.540878e-001	1.250000e+000	4.217603e-006	-4.217603e-006
2.110632734688238e-001	6.331894e-001	1.250000e+000	4.460750e-006	-4.460750e-006
2.374304609688238e-001	7.122909e-001	1.250000e+000	4.610266e-006	-4.610266e-006
2.706335859688238e-001	8.119003e-001	1.250000e+000	4.677857e-006	-4.677857e-006
3.419226484688238e-001	1.025767e+000	1.250000e+000	4.770282e-006	-4.770282e-006
4.386023359688238e-001	1.315807e+000	1.250000e+000	4.896889e-006	-4.896889e-006
5.714148359688238e-001	1.714244e+000	1.250000e+000	5.077948e-006	-5.077948e-006
7.569617109688238e-001	2.270885e+000	1.250000e+000	5.350853e-006	-5.350853e-006
9.669226484688238e-001	2.900767e+000	1.250000e+000	5.693446e-006	-5.693445e-006
9.990234375000000e-001	2.997070e+000	1.250000e+000	5.749286e-006	-5.749286e-006
1.000000000000000e+000	3.000000e+000	1.250000e+000	5.751000e-006	-5.751000e-006
Step Information: V2=1.5  (Run: 5/7)
0.000000000000000e+000	-5.712596e-030	1.500000e+000	-1.586609e-028	-1.586609e-028
2.355199933390395e-005	7.065590e-005	1.500000e+000	1.012484e-009	-1.012481e-009
3.327999905877732e-005	9.983985e-005	1.500000e+000	1.430658e-009	-1.430655e-009
6.195199824787778e-005	1.858557e-004	1.500000e+000	2.663036e-009	-2.663034e-009
1.848319947725940e-004	5.544952e-004	1.500000e+000	7.943822e-009	-7.943819e-009
3.055460968823809e-003	9.166370e-003	1.500000e+000	1.308694e-007	-1.308694e-007
5.985148468823809e-003	1.795542e-002	1.500000e+000	2.555012e-007	-2.555012e-007
9.891398468823809e-003	2.967415e-002	1.500000e+000	4.203152e-007	-4.203152e-007
1.477421096882381e-002	4.432257e-002	1.500000e+000	6.240945e-007	-6.240945e-007
2.063358596882381e-002	6.190067e-002	1.500000e+000	8.652759e-007	-8.652759e-007
2.844608596882381e-002	8.533814e-002	1.500000e+000	1.181041e-006	-1.181041e-006
3.723514846882381e-002	1.117053e-001	1.500000e+000	1.528181e-006	-1.528181e-006
4.797733596882381e-002	1.439318e-001	1.500000e+000	1.940585e-006	-1.940585e-006
6.067264846882381e-002	1.820177e-001	1.500000e+000	2.410778e-006	-2.410778e-006
7.532108596882381e-002	2.259630e-001	1.500000e+000	2.929693e-006	-2.929693e-006
9.192264846882381e-002	2.757676e-001	1.500000e+000	3.486658e-006	-3.486658e-006
1.114538984688238e-001	3.343613e-001	1.500000e+000	4.098914e-006	-4.098914e-006
1.348913984688238e-001	4.046737e-001	1.500000e+000	4.771487e-006	-4.771487e-006
1.641882734688238e-001	4.925643e-001	1.500000e+000	5.515777e-006	-5.515777e-006
1.954382734688238e-001	5.863142e-001	1.500000e+000	6.190225e-006	-6.190225e-006
2.276648359688238e-001	6.829938e-001	1.500000e+000	6.754984e-006	-6.754984e-006
2.608679609688238e-001	7.826031e-001	1.500000e+000	7.196102e-006	-7.196102e-006
2.950476484688238e-001	8.851422e-001	1.500000e+000	7.498751e-006	-7.498751e-006
3.292273359688238e-001	9.876813e-001	1.500000e+000	7.645257e-006	-7.645257e-006
4.210242109688238e-001	1.263072e+000	1.500000e+000	7.821975e-006	-7.821975e-006
5.470007734688238e-001	1.641001e+000	1.500000e+000	8.076183e-006	-8.076183e-006
7.227820234688238e-001	2.168345e+000	1.500000e+000	8.460936e-006	-8.460936e-006
9.669226484688238e-001	2.900767e+000	1.500000e+000	9.063415e-006	-9.063415e-006
9.990234375000000e-001	2.997069e+000	1.500000e+000	9.149009e-006	-9.149009e-006
1.000000000000000e+000	2.999999e+000	1.500000e+000	9.151637e-006	-9.151637e-006
Step Information: V2=1.75  (Run: 6/7)
0.000000000000000e+000	-5.737417e-030	1.750000e+000	-1.591574e-028	-1.591574e-028
2.355199933390395e-005	7.065588e-005	1.750000e+000	1.221370e-009	-1.221368e-009
3.327999905877732e-005	9.983982e-005	1.750000e+000	1.725824e-009	-1.725822e-009
6.195199824787778e-005	1.858557e-004	1.750000e+000	3.212504e-009	-3.212502e-009
1.848319947725940e-004	5.544950e-004	1.750000e+000	9.583188e-009	-9.583186e-009
3.055460968823809e-003	9.166367e-003	1.750000e+000	1.579856e-007	-1.579856e-007
5.985148468823809e-003	1.795541e-002	1.750000e+000	3.086469e-007	-3.086469e-007
9.891398468823809e-003	2.967414e-002	1.750000e+000	5.082140e-007	-5.082140e-007
1.477421096882381e-002	4.432256e-002	1.750000e+000	7.555115e-007	-7.555115e-007
2.063358596882381e-002	6.190065e-002	1.750000e+000	1.049029e-006	-1.049029e-006
2.844608596882381e-002	8.533812e-002	1.750000e+000	1.434774e-006	-1.434774e-006
3.723514846882381e-002	1.117053e-001	1.750000e+000	1.860917e-006	-1.860917e-006
4.797733596882381e-002	1.439318e-001	1.750000e+000	2.370288e-006	-2.370288e-006
6.067264846882381e-002	1.820177e-001	1.750000e+000	2.955672e-006	-2.955672e-006
7.532108596882381e-002	2.259629e-001	1.750000e+000	3.608322e-006	-3.608322e-006
9.192264846882381e-002	2.757675e-001	1.750000e+000	4.317955e-006	-4.317955e-006
1.114538984688238e-001	3.343612e-001	1.750000e+000	5.111373e-006	-5.111373e-006
1.348913984688238e-001	4.046736e-001	1.750000e+000	6.003641e-006	-6.003641e-006
1.641882734688238e-001	4.925641e-001	1.750000e+000	7.026244e-006	-7.026244e-006
2.003210859688238e-001	6.009625e-001	1.750000e+000	8.144043e-006	-8.144043e-006
2.384070234688238e-001	7.152202e-001	1.750000e+000	9.148735e-006	-9.148735e-006
2.774695234688238e-001	8.324076e-001	1.750000e+000	9.991589e-006	-9.991589e-006
3.184851484688238e-001	9.554543e-001	1.750000e+000	1.066884e-005	-1.066884e-005
3.595007734688238e-001	1.078501e+000	1.750000e+000	1.112943e-005	-1.112943e-005
4.005163984688238e-001	1.201548e+000	1.750000e+000	1.136900e-005	-1.136900e-005
5.186804609688238e-001	1.556040e+000	1.750000e+000	1.169302e-005	-1.169302e-005
6.827429609688238e-001	2.048228e+000	1.750000e+000	1.218046e-005	-1.218046e-005
9.141882734688238e-001	2.742563e+000	1.750000e+000	1.295653e-005	-1.295653e-005
9.669226484688238e-001	2.900767e+000	1.750000e+000	1.314895e-005	-1.314895e-005
9.990234375000000e-001	2.997069e+000	1.750000e+000	1.326903e-005	-1.326903e-005
1.000000000000000e+000	2.999999e+000	1.750000e+000	1.327272e-005	-1.327272e-005
Step Information: V2=2  (Run: 7/7)
0.000000000000000e+000	-5.706596e-030	2.000000e+000	-1.585410e-028	-1.585410e-028
2.355199933390395e-005	7.065586e-005	2.000000e+000	1.425816e-009	-1.425814e-009
3.327999905877732e-005	9.983980e-005	2.000000e+000	2.014716e-009	-2.014713e-009
6.195199824787778e-005	1.858556e-004	2.000000e+000	3.750291e-009	-3.750289e-009
1.848319947725940e-004	5.544949e-004	2.000000e+000	1.118770e-008	-1.118770e-008
3.055460968823809e-003	9.166365e-003	2.000000e+000	1.845237e-007	-1.845237e-007
5.985148468823809e-003	1.795541e-002	2.000000e+000	3.606568e-007	-3.606568e-007
9.891398468823809e-003	2.967414e-002	2.000000e+000	5.942277e-007	-5.942276e-007
1.477421096882381e-002	4.432254e-002	2.000000e+000	8.840975e-007	-8.840975e-007
2.063358596882381e-002	6.190063e-002	2.000000e+000	1.228803e-006	-1.228803e-006
2.844608596882381e-002	8.533809e-002	2.000000e+000	1.682973e-006	-1.682973e-006
3.723514846882381e-002	1.117052e-001	2.000000e+000	2.186339e-006	-2.186339e-006
4.797733596882381e-002	1.439317e-001	2.000000e+000	2.790453e-006	-2.790453e-006
6.067264846882381e-002	1.820176e-001	2.000000e+000	3.488331e-006	-3.488331e-006
7.532108596882381e-002	2.259628e-001	2.000000e+000	4.271511e-006	-4.271511e-006
9.192264846882381e-002	2.757674e-001	2.000000e+000	5.130054e-006	-5.130054e-006
1.114538984688238e-001	3.343611e-001	2.000000e+000	6.100037e-006	-6.100037e-006
1.348913984688238e-001	4.046735e-001	2.000000e+000	7.206230e-006	-7.206230e-006
1.641882734688238e-001	4.925640e-001	2.000000e+000	8.499524e-006	-8.499523e-006
2.012976484688238e-001	6.038920e-001	2.000000e+000	9.993732e-006	-9.993732e-006
2.442663984688238e-001	7.327980e-001	2.000000e+000	1.152072e-005	-1.152072e-005
2.891882734688238e-001	8.675635e-001	2.000000e+000	1.288092e-005	-1.288092e-005
3.360632734688238e-001	1.008188e+000	2.000000e+000	1.403869e-005	-1.403869e-005
3.848913984688238e-001	1.154673e+000	2.000000e+000	1.495519e-005	-1.495518e-005
4.337195234688238e-001	1.301157e+000	2.000000e+000	1.556976e-005	-1.556976e-005
4.835242109688238e-001	1.450571e+000	2.000000e+000	1.587969e-005	-1.587969e-005
6.339148359688238e-001	1.901743e+000	2.000000e+000	1.644611e-005	-1.644611e-005
8.448523359688238e-001	2.534555e+000	2.000000e+000	1.733964e-005	-1.733964e-005
9.669226484688238e-001	2.900766e+000	2.000000e+000	1.791414e-005	-1.791414e-005
9.990234375000000e-001	2.997068e+000	2.000000e+000	1.807252e-005	-1.807252e-005
1.000000000000000e+000	2.999998e+000	2.000000e+000	1.807739e-005	-1.807739e-005
